
T1534 002:122 SEGGER J-Link V4.40c Log File (0001ms, 2120ms total)
T1534 002:122 DLL Compiled: Jan 24 2012 09:30:33 (0001ms, 2120ms total)
T1534 002:122 Logging started @ 2012-08-13 21:13 (0001ms, 2120ms total)
T1534 002:123 JLINK_SetWarnOutHandler(...) (0000ms, 2121ms total)
T1534 002:123 JLINK_OpenEx(...)
Firmware: J-Link ARM V8 compiled Sep 22 2011 16:23:23
Hardware: V8.00
S/N: 20100214
Feature(s): RDI,FlashDL,FlashBP,JFlash,GDBFull  returns O.K. (0756ms, 2121ms total)
T1534 002:879 JLINK_SetErrorOutHandler(...) (0000ms, 2877ms total)
T1534 002:879 JLINK_ExecCommand("Device = STM32F407VG", ...)
                JLINK_ExecCommand("map ram 0x20000000 - 0x2001FFFF", ...)  returns 0x00 (0000ms, 0000ms total)
                JLINK_AddMirrorAreaEx(Addr = 0x00000000, Size = 0x00000000) (0000ms, 0000ms total)
              Device "STM32F407VG" selected (1024 KB flash, 128 KB RAM).  returns 0x00 (0005ms, 2877ms total)
T1534 002:886 JLINK_ExecCommand("ProjectFile = "F:\新建文件夹\STM32F4DISCOVERY\STM32F4xx_DSP_StdPeriph_Lib_V1.0.1\Project\4Axis\MDK-ARM\JLinkSettings.ini"", ...)  returns 0x00 (0002ms, 2883ms total)
T1534 002:889 JLINK_ExecCommand("DisableConnectionTimeout", ...)  returns 0x00 (0000ms, 2885ms total)
T1534 002:889 JLINK_TIF_Select(JLINKARM_TIF_JTAG)  returns 0x00 (0000ms, 2885ms total)
T1534 002:889 JLINK_SetSpeed(2000) (0001ms, 2885ms total)
T1534 002:892 JLINK_GetHardwareVersion()  returns 0x13880 (0000ms, 2886ms total)
T1534 002:893 JLINK_GetDLLVersion()  returns 44003 (0000ms, 2886ms total)
T1534 002:894 JLINK_GetFirmwareString(...) (0000ms, 2886ms total)
T1534 002:894 JLINK_GetDLLVersion()  returns 44003 (0000ms, 2886ms total)
T1534 002:894 JLINK_GetCompileDateTime() (0000ms, 2886ms total)
T1534 002:894 JLINK_GetFirmwareString(...) (0000ms, 2886ms total)
T1534 002:895 JLINK_GetHardwareVersion()  returns 0x13880 (0000ms, 2886ms total)
T1534 002:895 JLINK_GetIdData(...) >0x2F8 JTAG>TotalIRLen = 9, IRPrint = 0x0011 >0x30 JTAG> >0x210 JTAG> >0x80 JTAG> >0x40 JTAG> >0x40 JTAG> >0x50 JTAG> >0x40 JTAG> >0x40 JTAG> >0x40 JTAG> >0x50 JTAG> >0x40 JTAG> >0x50 JTAG> >0x40 JTAG> >0x40 JTAG> >0x40 JTAG> >0x30 JTAG> >0x40 JTAG> >0x50 JTAG> >0x40 JTAG> >0x38 JTAG> >0x80 JTAG> >0x40 JTAG> >0x40 JTAG> >0x50 JTAG> >0x40 JTAG> >0x40 JTAG> >0x40 JTAG> >0x50 JTAG> >0x40 JTAG> >0x40 JTAG> >0x30 JTAG> >0x40 JTAG> >0x40 JTAG> >0x40 JTAG> >0x40 JTAG>
 >0x40 JTAG> >0x50 JTAG> >0x40 JTAG> >0x80 JTAG> >0x40 JTAG> >0x30 JTAG> >0x40 JTAG> >0x40 JTAG> >0x40 JTAG> >0x40 JTAG> >0x40 JTAG> >0x50 JTAG> >0x40 JTAG> >0x80 JTAG> >0x40 JTAG> >0x30 JTAG> >0x40 JTAG> >0x50 JTAG> >0x40 JTAG> >0x40 JTAG> >0x40 JTAG> >0x30 JTAG> >0x40 JTAG> >0x50 JTAG> >0x40 JTAG>Found Cortex-M4 r0p1, Little endian. >0x50 JTAG> >0x50 JTAG> >0x40 JTAG> >0x40 JTAG> >0x30 JTAG> >0x30 JTAG> >0x50 JTAG> >0x40 JTAG> >0x80 JTAG> >0x40 JTAG> >0x30 JTAG> >0x40 JTAG> >0x50 JTAG> >0x40 JTAG>
 >0x40 JTAG> >0x40 JTAG> >0x30 JTAG> >0x40 JTAG> >0x50 JTAG> >0x40 JTAG>TPIU fitted. >0x40 JTAG> >0x40 JTAG> >0x30 JTAG> >0x40 JTAG> >0x50 JTAG> >0x40 JTAG>ETM fitted. >0x40 JTAG> >0x40 JTAG> >0x30 JTAG> >0x40 JTAG> >0x50 JTAG> >0x40 JTAG> >0x40 JTAG> >0x40 JTAG> >0x30 JTAG> >0x40 JTAG> >0x50 JTAG> >0x40 JTAG>  FPUnit: 6 code (BP) slots and 2 literal slots >0x40 JTAG> >0x40 JTAG> >0x30 JTAG> >0x40 JTAG> >0x50 JTAG> >0x40 JTAG> >0x40 JTAG> >0x40 JTAG> >0x30 JTAG> >0x40 JTAG> >0x50 JTAG> >0x40 JTAG>
 ScanLen=9 NumDevices=2 aId[0]=0x4BA00477 aIrRead[0]=0 aScanLen[0]=0 aScanRead[0]=0 (0115ms, 2886ms total)
T1534 003:010 JLINK_JTAG_GetDeviceID(DeviceIndex = 0)  returns 0x4BA00477 (0000ms, 3001ms total)
T1534 003:011 JLINK_JTAG_GetDeviceInfo(DeviceIndex = 0)  returns 0x00 (0000ms, 3002ms total)
T1534 003:011 JLINK_JTAG_GetDeviceID(DeviceIndex = 1)  returns 0x6413041 (0000ms, 3002ms total)
T1534 003:011 JLINK_JTAG_GetDeviceInfo(DeviceIndex = 1)  returns 0x00 (0000ms, 3002ms total)
T1534 003:011 JLINK_GetDebugInfo(0x100) -- Value=0xE00FF003  returns 0x00 (0000ms, 3002ms total)
T1534 003:012 JLINK_ReadMem (0xE00FFFF0, 0x0010 Bytes, ...) -- CPU is running -- CPU_ReadMem(16 bytes @ 0xE00FFFF0) -- Data:  0D 00 00 00 10 00 00 00 05 00 00 00 B1 00 00 00  returns 0x00 (0005ms, 3002ms total)
T1534 003:017 JLINK_ReadMem (0xE00FFFD0, 0x0020 Bytes, ...) -- CPU is running -- CPU_ReadMem(32 bytes @ 0xE00FFFD0) -- Data:  00 00 00 00 00 00 00 00 00 00 00 00 00 00 00 00 ...  returns 0x00 (0001ms, 3007ms total)
T1534 003:018 JLINK_ReadMem (0xE00FF000, 0x0018 Bytes, ...) -- CPU is running -- CPU_ReadMem(24 bytes @ 0xE00FF000) -- Data:  03 F0 F0 FF 03 20 F0 FF 03 30 F0 FF 03 10 F0 FF ...  returns 0x00 (0001ms, 3008ms total)
T1534 003:019 JLINK_ReadMemU32(0xE000ED00, 0x0001 Items, ...) -- CPU is running -- CPU_ReadMem(4 bytes @ 0xE000ED00) -- Data:  41 C2 0F 41  returns 0x01 (0001ms, 3009ms total)
T1534 003:020 JLINK_ReadMemU32(0xE000EF40, 0x0001 Items, ...) -- CPU is running -- CPU_ReadMem(4 bytes @ 0xE000EF40) -- Data:  21 00 11 10  returns 0x01 (0001ms, 3010ms total)
T1534 003:021 JLINK_ReadMemU32(0xE000EF44, 0x0001 Items, ...) -- CPU is running -- CPU_ReadMem(4 bytes @ 0xE000EF44) -- Data:  11 00 00 11  returns 0x01 (0001ms, 3011ms total)
T1534 003:022 JLINK_SetResetType(JLINKARM_RESET_TYPE_NORMAL)  returns JLINKARM_RESET_TYPE_NORMAL (0000ms, 3012ms total)
T1534 003:022 JLINK_Reset() >0x308 JTAG>TotalIRLen = 9, IRPrint = 0x0011 >0x30 JTAG> >0x210 JTAG> >0x80 JTAG> >0x40 JTAG> >0x40 JTAG> >0x50 JTAG> >0x40 JTAG> >0x40 JTAG> >0x40 JTAG> >0x50 JTAG> >0x40 JTAG> >0x50 JTAG> >0x40 JTAG> >0x40 JTAG> >0x40 JTAG> >0x30 JTAG> >0x40 JTAG> >0x50 JTAG> >0x40 JTAG> >0x38 JTAG> >0x80 JTAG> >0x40 JTAG> >0x40 JTAG> >0x50 JTAG> >0x40 JTAG> >0x40 JTAG> >0x40 JTAG> >0x50 JTAG> >0x40 JTAG> >0x40 JTAG> >0x30 JTAG> >0x40 JTAG> >0x40 JTAG> >0x40 JTAG> >0x40 JTAG> >0x40 JTAG>
 >0x50 JTAG> >0x40 JTAG> >0x80 JTAG> >0x40 JTAG> >0x30 JTAG> >0x40 JTAG> >0x40 JTAG> >0x40 JTAG> >0x40 JTAG> >0x40 JTAG> >0x50 JTAG> >0x40 JTAG> >0x80 JTAG> >0x40 JTAG> >0x30 JTAG> >0x40 JTAG> >0x50 JTAG> >0x40 JTAG> >0x40 JTAG> >0x40 JTAG> >0x30 JTAG> >0x40 JTAG> >0x50 JTAG> >0x40 JTAG>Found Cortex-M4 r0p1, Little endian. >0x50 JTAG> >0x50 JTAG> >0x40 JTAG> >0x40 JTAG> >0x30 JTAG> >0x30 JTAG> >0x50 JTAG> >0x40 JTAG> >0x80 JTAG> >0x40 JTAG> >0x30 JTAG> >0x40 JTAG> >0x50 JTAG> >0x40 JTAG> >0x40 JTAG>
 >0x40 JTAG> >0x30 JTAG> >0x40 JTAG> >0x50 JTAG> >0x40 JTAG>TPIU fitted. >0x40 JTAG> >0x40 JTAG> >0x30 JTAG> >0x40 JTAG> >0x50 JTAG> >0x40 JTAG>ETM fitted. >0x40 JTAG> >0x40 JTAG> >0x30 JTAG> >0x40 JTAG> >0x50 JTAG> >0x40 JTAG> >0x40 JTAG> >0x40 JTAG> >0x30 JTAG> >0x40 JTAG> >0x50 JTAG> >0x40 JTAG>  FPUnit: 6 code (BP) slots and 2 literal slots >0x40 JTAG> >0x40 JTAG> >0x30 JTAG> >0x40 JTAG> >0x50 JTAG> >0x40 JTAG> >0x40 JTAG> >0x40 JTAG> >0x30 JTAG> >0x40 JTAG> >0x50 JTAG> >0x40 JTAG> >0x48 JTAG>
 >0x80 JTAG> >0x40 JTAG> >0x40 JTAG> >0x50 JTAG> >0x40 JTAG> >0x40 JTAG> >0x40 JTAG> >0x50 JTAG> >0x40 JTAG> >0x40 JTAG> >0x30 JTAG> >0x40 JTAG> >0x40 JTAG> >0x40 JTAG> >0x40 JTAG> >0x40 JTAG> >0x50 JTAG> >0x40 JTAG> >0x80 JTAG> >0x40 JTAG> >0x30 JTAG> >0x40 JTAG> >0x40 JTAG> >0x40 JTAG> >0x40 JTAG> >0x40 JTAG> >0x50 JTAG> >0x40 JTAG> >0x80 JTAG> >0x40 JTAG> >0x30 JTAG> >0x40 JTAG> >0x50 JTAG> >0x40 JTAG> >0x40 JTAG> >0x40 JTAG> >0x30 JTAG> >0x40 JTAG> >0x50 JTAG> >0x40 JTAG>
Found Cortex-M4 r0p1, Little endian. >0x50 JTAG> >0x50 JTAG> >0x40 JTAG> >0x40 JTAG> >0x30 JTAG> >0x30 JTAG> >0x50 JTAG> >0x40 JTAG> >0x80 JTAG> >0x40 JTAG> >0x30 JTAG> >0x40 JTAG> >0x50 JTAG> >0x40 JTAG> >0x40 JTAG> >0x40 JTAG> >0x30 JTAG> >0x40 JTAG> >0x50 JTAG> >0x40 JTAG>TPIU fitted. >0x40 JTAG> >0x40 JTAG> >0x30 JTAG> >0x40 JTAG> >0x50 JTAG> >0x40 JTAG>ETM fitted. >0x40 JTAG> >0x40 JTAG> >0x30 JTAG> >0x40 JTAG> >0x50 JTAG> >0x40 JTAG> >0x40 JTAG> >0x40 JTAG> >0x30 JTAG> >0x40 JTAG> >0x50 JTAG>
 >0x40 JTAG>  FPUnit: 6 code (BP) slots and 2 literal slots >0x40 JTAG> >0x40 JTAG> >0x30 JTAG> >0x40 JTAG> >0x50 JTAG> >0x40 JTAG> >0x40 JTAG> >0x40 JTAG> >0x30 JTAG> >0x40 JTAG> >0x50 JTAG> >0x40 JTAG> -- CPU is running -- CPU_WriteMem(4 bytes @ 0xE000EDF0) -- CPU is running -- CPU_WriteMem(4 bytes @ 0xE000EDFC) -- CPU is running -- CPU_WriteMem(4 bytes @ 0xE000ED0C) -- CPU is running -- CPU_ReadMem(4 bytes @ 0xE000EDF0) -- CPU is running -- CPU_ReadMem(4 bytes @ 0xE000EDF0) -- CPU is running
 -- CPU_WriteMem(4 bytes @ 0xE000EDF0) -- CPU is running -- CPU_WriteMem(4 bytes @ 0xE000EDFC) -- CPU is running -- CPU_ReadMem(4 bytes @ 0xE000EDF0) >0x90 JTAG> >0x40 JTAG> >0x30 JTAG> >0x40 JTAG> >0x50 JTAG> >0x40 JTAG> -- CPU_WriteMem(4 bytes @ 0xE000EDFC) -- CPU_WriteMem(4 bytes @ 0xE0001028) -- CPU_WriteMem(4 bytes @ 0xE0001038) -- CPU_WriteMem(4 bytes @ 0xE0001048) -- CPU_WriteMem(4 bytes @ 0xE0001058) (0241ms, 3012ms total)
T1534 003:264 JLINK_ReadReg(R15)  returns 0x0800019C (0000ms, 3253ms total)
T1534 003:264 JLINK_ReadReg(XPSR)  returns 0x01000000 (0000ms, 3253ms total)
T1534 003:264 JLINK_Halt()  returns 0x00 (0000ms, 3253ms total)
T1534 003:264 JLINK_IsHalted()  returns TRUE (0000ms, 3253ms total)
T1534 003:264 JLINK_ReadMemU32(0xE000EDF0, 0x0001 Items, ...) -- CPU_ReadMem(4 bytes @ 0xE000EDF0) -- Data:  03 00 03 00  returns 0x01 (0001ms, 3253ms total)
T1534 003:265 JLINK_WriteU32(0xE000EDF0, 0xA05F0003) -- CPU_WriteMem(4 bytes @ 0xE000EDF0)  returns 0x00 (0001ms, 3254ms total)
T1534 003:266 JLINK_WriteU32(0xE000EDFC, 0x01000000) -- CPU_WriteMem(4 bytes @ 0xE000EDFC)  returns 0x00 (0001ms, 3255ms total)
T1534 003:267 JLINK_GetHWStatus(...)  returns 0x00 (0001ms, 3256ms total)
T1534 003:268 JLINK_GetNumBPUnits(Type = 0xFFFFFF00)  returns 0x06 (0000ms, 3257ms total)
T1534 003:268 JLINK_GetNumBPUnits(Type = 0xF0)  returns 0x2000 (0000ms, 3257ms total)
T1534 003:268 JLINK_GetNumWPUnits()  returns 0x04 (0000ms, 3257ms total)
T1534 003:268 JLINK_GetSpeed()  returns 0x7D0 (0000ms, 3257ms total)
T1534 003:268 JLINK_ReadMemU32(0xE000E004, 0x0001 Items, ...) -- CPU_ReadMem(4 bytes @ 0xE000E004) -- Data:  02 00 00 00  returns 0x01 (0001ms, 3257ms total)
T1534 003:269 JLINK_ReadMemU32(0xE000E004, 0x0001 Items, ...) -- CPU_ReadMem(4 bytes @ 0xE000E004) -- Data:  02 00 00 00  returns 0x01 (0001ms, 3258ms total)
T1534 003:270 JLINK_WriteMem(0xE0001000, 0x001C Bytes, ...) -- Data:  01 00 00 00 00 00 00 00 00 00 00 00 00 00 00 00 ... -- CPU_WriteMem(28 bytes @ 0xE0001000)  returns 0x1C (0001ms, 3259ms total)
T1534 003:271 JLINK_ReadMem (0xE0001000, 0x001C Bytes, ...) -- CPU_ReadMem(28 bytes @ 0xE0001000) -- Data:  01 00 00 40 00 00 00 00 00 00 00 00 00 00 00 00 ...  returns 0x00 (0001ms, 3260ms total)
T1534 003:272 JLINK_ReadReg(R15)  returns 0x0800019C (0000ms, 3261ms total)
T1534 003:272 JLINK_ReadReg(XPSR)  returns 0x01000000 (0000ms, 3261ms total)
T1534 003:470 JLINK_SetResetType(JLINKARM_RESET_TYPE_NORMAL)  returns JLINKARM_RESET_TYPE_NORMAL (0000ms, 3261ms total)
T1534 003:470 JLINK_Reset() >0x2F8 JTAG>TotalIRLen = 9, IRPrint = 0x0011 >0x30 JTAG> >0x210 JTAG> >0x80 JTAG> >0x40 JTAG> >0x40 JTAG> >0x50 JTAG> >0x40 JTAG> >0x40 JTAG> >0x40 JTAG> >0x50 JTAG> >0x40 JTAG> >0x50 JTAG> >0x40 JTAG> >0x40 JTAG> >0x40 JTAG> >0x30 JTAG> >0x40 JTAG> >0x50 JTAG> >0x40 JTAG> >0x38 JTAG> >0x80 JTAG> >0x40 JTAG> >0x40 JTAG> >0x50 JTAG> >0x40 JTAG> >0x40 JTAG> >0x40 JTAG> >0x50 JTAG> >0x40 JTAG> >0x40 JTAG> >0x30 JTAG> >0x40 JTAG> >0x40 JTAG> >0x40 JTAG> >0x40 JTAG> >0x40 JTAG>
 >0x50 JTAG> >0x40 JTAG> >0x80 JTAG> >0x40 JTAG> >0x30 JTAG> >0x40 JTAG> >0x40 JTAG> >0x40 JTAG> >0x40 JTAG> >0x40 JTAG> >0x50 JTAG> >0x40 JTAG> >0x80 JTAG> >0x40 JTAG> >0x30 JTAG> >0x40 JTAG> >0x50 JTAG> >0x40 JTAG> >0x40 JTAG> >0x40 JTAG> >0x30 JTAG> >0x40 JTAG> >0x50 JTAG> >0x40 JTAG>Found Cortex-M4 r0p1, Little endian. >0x50 JTAG> >0x50 JTAG> >0x40 JTAG> >0x40 JTAG> >0x30 JTAG> >0x30 JTAG> >0x50 JTAG> >0x40 JTAG> >0x80 JTAG> >0x40 JTAG> >0x30 JTAG> >0x40 JTAG> >0x50 JTAG> >0x40 JTAG> >0x40 JTAG>
 >0x40 JTAG> >0x30 JTAG> >0x40 JTAG> >0x50 JTAG> >0x40 JTAG>TPIU fitted. >0x40 JTAG> >0x40 JTAG> >0x30 JTAG> >0x40 JTAG> >0x50 JTAG> >0x40 JTAG>ETM fitted. >0x40 JTAG> >0x40 JTAG> >0x30 JTAG> >0x40 JTAG> >0x50 JTAG> >0x40 JTAG> >0x40 JTAG> >0x40 JTAG> >0x30 JTAG> >0x40 JTAG> >0x50 JTAG> >0x40 JTAG>  FPUnit: 6 code (BP) slots and 2 literal slots >0x40 JTAG> >0x40 JTAG> >0x30 JTAG> >0x40 JTAG> >0x50 JTAG> >0x40 JTAG> >0x40 JTAG> >0x40 JTAG> >0x30 JTAG> >0x40 JTAG> >0x50 JTAG> >0x40 JTAG> >0x48 JTAG>
 >0x80 JTAG> >0x40 JTAG> >0x40 JTAG> >0x50 JTAG> >0x40 JTAG> >0x40 JTAG> >0x40 JTAG> >0x50 JTAG> >0x40 JTAG> >0x40 JTAG> >0x30 JTAG> >0x40 JTAG> >0x40 JTAG> >0x40 JTAG> >0x40 JTAG> >0x40 JTAG> >0x50 JTAG> >0x40 JTAG> >0x80 JTAG> >0x40 JTAG> >0x30 JTAG> >0x40 JTAG> >0x40 JTAG> >0x40 JTAG> >0x40 JTAG> >0x40 JTAG> >0x50 JTAG> >0x40 JTAG> >0x80 JTAG> >0x40 JTAG> >0x30 JTAG> >0x40 JTAG> >0x50 JTAG> >0x40 JTAG> >0x40 JTAG> >0x40 JTAG> >0x30 JTAG> >0x40 JTAG> >0x50 JTAG> >0x40 JTAG>
Found Cortex-M4 r0p1, Little endian. >0x50 JTAG> >0x50 JTAG> >0x40 JTAG> >0x40 JTAG> >0x30 JTAG> >0x30 JTAG> >0x50 JTAG> >0x40 JTAG> >0x80 JTAG> >0x40 JTAG> >0x30 JTAG> >0x40 JTAG> >0x50 JTAG> >0x40 JTAG> >0x40 JTAG> >0x40 JTAG> >0x30 JTAG> >0x40 JTAG> >0x50 JTAG> >0x40 JTAG>TPIU fitted. >0x40 JTAG> >0x40 JTAG> >0x30 JTAG> >0x40 JTAG> >0x50 JTAG> >0x40 JTAG>ETM fitted. >0x40 JTAG> >0x40 JTAG> >0x30 JTAG> >0x40 JTAG> >0x50 JTAG> >0x40 JTAG> >0x40 JTAG> >0x40 JTAG> >0x30 JTAG> >0x40 JTAG> >0x50 JTAG>
 >0x40 JTAG>  FPUnit: 6 code (BP) slots and 2 literal slots >0x40 JTAG> >0x40 JTAG> >0x30 JTAG> >0x40 JTAG> >0x50 JTAG> >0x40 JTAG> >0x40 JTAG> >0x40 JTAG> >0x30 JTAG> >0x40 JTAG> >0x50 JTAG> >0x40 JTAG> -- CPU_WriteMem(4 bytes @ 0xE000EDF0) -- CPU_WriteMem(4 bytes @ 0xE000EDFC) -- CPU_WriteMem(4 bytes @ 0xE000ED0C) -- CPU_ReadMem(4 bytes @ 0xE000EDF0) -- CPU_ReadMem(4 bytes @ 0xE000EDF0) -- CPU_WriteMem(4 bytes @ 0xE000EDF0) -- CPU_WriteMem(4 bytes @ 0xE000EDFC) -- CPU is running
 -- CPU_ReadMem(4 bytes @ 0xE000EDF0) >0x90 JTAG> >0x40 JTAG> >0x30 JTAG> >0x40 JTAG> >0x50 JTAG> >0x40 JTAG> -- CPU_WriteMem(4 bytes @ 0xE000EDFC) -- CPU_WriteMem(4 bytes @ 0xE0001028) -- CPU_WriteMem(4 bytes @ 0xE0001038) -- CPU_WriteMem(4 bytes @ 0xE0001048) -- CPU_WriteMem(4 bytes @ 0xE0001058) (0240ms, 3261ms total)
T1534 003:710 JLINK_ReadReg(R15)  returns 0x0800019C (0000ms, 3501ms total)
T1534 003:710 JLINK_ReadReg(XPSR)  returns 0x01000000 (0000ms, 3501ms total)
T1534 003:710 JLINK_ReadMemU32(0xE0001004, 0x0001 Items, ...) -- CPU_ReadMem(4 bytes @ 0xE0001004) -- Data:  00 00 00 00  returns 0x01 (0001ms, 3501ms total)
T1534 004:298 JLINK_ReadMem (0x0800019C, 0x003C Bytes, ...) -- CPU_ReadMem(128 bytes @ 0x08000180) -- Updating C cache (128 bytes @ 0x08000180) -- Read from C cache (60 bytes @ 0x0800019C) -- Data:  06 48 80 47 06 48 00 47 FE E7 FE E7 FE E7 FE E7 ...  returns 0x00 (0004ms, 3502ms total)
T1534 008:178 JLINK_ReadMem (0x200001B4, 0x0020 Bytes, ...) -- CPU_ReadMem(128 bytes @ 0x20000180) -- Updating C cache (128 bytes @ 0x20000180) -- Read from C cache (32 bytes @ 0x200001B4) -- Data:  4F EA 48 00 00 E0 03 E0 BA FB F0 F0 88 B3 46 E0 ...  returns 0x00 (0003ms, 3506ms total)
T16D4 008:241 JLINK_SetBPEx(Addr = 0x08001BF4, Type = 0xFFFFFFF2)  returns 0x00000001 (0000ms, 3509ms total)
T16D4 008:242 JLINK_Go() -- CPU_WriteMem(4 bytes @ 0xE0002000) -- CPU_WriteMem(4 bytes @ 0xE0002008) -- CPU_WriteMem(4 bytes @ 0xE000200C) -- CPU_WriteMem(4 bytes @ 0xE0002010) -- CPU_WriteMem(4 bytes @ 0xE0002014) -- CPU_WriteMem(4 bytes @ 0xE0002018) -- CPU_WriteMem(4 bytes @ 0xE000201C) (0009ms, 3509ms total)
T16D4 008:352 JLINK_IsHalted()  returns TRUE (0005ms, 3518ms total)
T16D4 008:357 JLINK_Halt()  returns 0x00 (0000ms, 3518ms total)
T16D4 008:357 JLINK_IsHalted()  returns TRUE (0000ms, 3518ms total)
T16D4 008:357 JLINK_IsHalted()  returns TRUE (0000ms, 3518ms total)
T16D4 008:357 JLINK_IsHalted()  returns TRUE (0000ms, 3518ms total)
T16D4 008:357 JLINK_ReadReg(R15)  returns 0x08001BF4 (0000ms, 3518ms total)
T16D4 008:357 JLINK_ReadReg(XPSR)  returns 0x61000000 (0000ms, 3518ms total)
T16D4 008:357 JLINK_ClrBPEx(BPHandle = 0x00000001)  returns 0x00 (0000ms, 3518ms total)
T16D4 008:357 JLINK_ReadMemU32(0xE000ED30, 0x0001 Items, ...) -- CPU_ReadMem(4 bytes @ 0xE000ED30) -- Data:  03 00 00 00  returns 0x01 (0002ms, 3518ms total)
T16D4 008:359 JLINK_ReadMemU32(0xE0001028, 0x0001 Items, ...) -- CPU_ReadMem(4 bytes @ 0xE0001028) -- Data:  00 00 00 00  returns 0x01 (0001ms, 3520ms total)
T16D4 008:360 JLINK_ReadMemU32(0xE0001038, 0x0001 Items, ...) -- CPU_ReadMem(4 bytes @ 0xE0001038) -- Data:  00 02 00 00  returns 0x01 (0001ms, 3521ms total)
T16D4 008:361 JLINK_ReadMemU32(0xE0001048, 0x0001 Items, ...) -- CPU_ReadMem(4 bytes @ 0xE0001048) -- Data:  00 00 00 00  returns 0x01 (0001ms, 3522ms total)
T16D4 008:362 JLINK_ReadMemU32(0xE0001058, 0x0001 Items, ...) -- CPU_ReadMem(4 bytes @ 0xE0001058) -- Data:  00 00 00 00  returns 0x01 (0001ms, 3523ms total)
T16D4 008:363 JLINK_ReadReg(R0)  returns 0x08001BF5 (0000ms, 3524ms total)
T16D4 008:363 JLINK_ReadReg(R1)  returns 0x200005E8 (0000ms, 3524ms total)
T16D4 008:363 JLINK_ReadReg(R2)  returns 0x00000000 (0000ms, 3524ms total)
T16D4 008:363 JLINK_ReadReg(R3)  returns 0x08001A71 (0000ms, 3524ms total)
T16D4 008:363 JLINK_ReadReg(R4)  returns 0x080021F0 (0000ms, 3524ms total)
T16D4 008:363 JLINK_ReadReg(R5)  returns 0x080021F0 (0000ms, 3524ms total)
T16D4 008:363 JLINK_ReadReg(R6)  returns 0x00000000 (0000ms, 3524ms total)
T16D4 008:363 JLINK_ReadReg(R7)  returns 0x00000000 (0000ms, 3524ms total)
T16D4 008:363 JLINK_ReadReg(R8)  returns 0x00000000 (0000ms, 3524ms total)
T16D4 008:363 JLINK_ReadReg(R9)  returns 0x00000000 (0000ms, 3524ms total)
T16D4 008:363 JLINK_ReadReg(R10)  returns 0x00000000 (0000ms, 3524ms total)
T16D4 008:363 JLINK_ReadReg(R11)  returns 0x00000000 (0000ms, 3524ms total)
T16D4 008:363 JLINK_ReadReg(R12)  returns 0x00000000 (0000ms, 3524ms total)
T16D4 008:363 JLINK_ReadReg(R13)  returns 0x200005E8 (0000ms, 3524ms total)
T16D4 008:363 JLINK_ReadReg(R14)  returns 0x080004FD (0000ms, 3524ms total)
T16D4 008:363 JLINK_ReadReg(R15)  returns 0x08001BF4 (0000ms, 3524ms total)
T16D4 008:363 JLINK_ReadReg(XPSR)  returns 0x61000000 (0000ms, 3524ms total)
T16D4 008:363 JLINK_ReadReg(MSP)  returns 0x200005E8 (0000ms, 3524ms total)
T16D4 008:363 JLINK_ReadReg(PSP)  returns 0x00000000 (0000ms, 3524ms total)
T16D4 008:363 JLINK_ReadReg(CFBP)  returns 0x00000000 (0000ms, 3524ms total)
T16D4 008:363 JLINK_ReadReg(FPSCR)  returns 0x00000000 (0009ms, 3524ms total)
T16D4 008:372 JLINK_ReadReg(FPS0)  returns 0x00000000 (0000ms, 3533ms total)
T16D4 008:372 JLINK_ReadReg(FPS1)  returns 0x00000000 (0000ms, 3533ms total)
T16D4 008:372 JLINK_ReadReg(FPS2)  returns 0x00000000 (0000ms, 3533ms total)
T16D4 008:372 JLINK_ReadReg(FPS3)  returns 0x00000000 (0000ms, 3533ms total)
T16D4 008:372 JLINK_ReadReg(FPS4)  returns 0x00000000 (0000ms, 3533ms total)
T16D4 008:372 JLINK_ReadReg(FPS5)  returns 0x00000000 (0000ms, 3533ms total)
T16D4 008:372 JLINK_ReadReg(FPS6)  returns 0x00000000 (0000ms, 3533ms total)
T16D4 008:372 JLINK_ReadReg(FPS7)  returns 0x00000000 (0000ms, 3533ms total)
T16D4 008:372 JLINK_ReadReg(FPS8)  returns 0x00000000 (0000ms, 3533ms total)
T16D4 008:372 JLINK_ReadReg(FPS9)  returns 0x00000000 (0000ms, 3533ms total)
T16D4 008:372 JLINK_ReadReg(FPS10)  returns 0x00000000 (0000ms, 3533ms total)
T16D4 008:372 JLINK_ReadReg(FPS11)  returns 0x00000000 (0000ms, 3533ms total)
T16D4 008:372 JLINK_ReadReg(FPS12)  returns 0x00000000 (0000ms, 3533ms total)
T16D4 008:372 JLINK_ReadReg(FPS13)  returns 0x00000000 (0000ms, 3533ms total)
T16D4 008:372 JLINK_ReadReg(FPS14)  returns 0x00000000 (0000ms, 3533ms total)
T16D4 008:372 JLINK_ReadReg(FPS15)  returns 0x00000000 (0000ms, 3533ms total)
T16D4 008:372 JLINK_ReadReg(FPS16)  returns 0x00000000 (0000ms, 3533ms total)
T16D4 008:372 JLINK_ReadReg(FPS17)  returns 0x00000000 (0000ms, 3533ms total)
T16D4 008:372 JLINK_ReadReg(FPS18)  returns 0x00000000 (0000ms, 3533ms total)
T16D4 008:372 JLINK_ReadReg(FPS19)  returns 0x00000000 (0000ms, 3533ms total)
T16D4 008:372 JLINK_ReadReg(FPS20)  returns 0x00000000 (0001ms, 3533ms total)
T16D4 008:373 JLINK_ReadReg(FPS31)  returns 0x00000000 (0000ms, 3534ms total)
T16D4 008:373 JLINK_ReadReg(FPS7)  returns 0x00000000 (0000ms, 3534ms total)
T16D4 008:373 JLINK_ReadReg(FPS8)  returns 0x00000000 (0000ms, 3534ms total)
T16D4 008:373 JLINK_ReadReg(FPS9)  returns 0x00000000 (0000ms, 3534ms total)
T16D4 008:373 JLINK_ReadReg(FPS10)  returns 0x00000000 (0000ms, 3534ms total)
T16D4 008:373 JLINK_ReadReg(FPS11)  returns 0x00000000 (0000ms, 3534ms total)
T16D4 008:373 JLINK_ReadReg(FPS12)  returns 0x00000000 (0000ms, 3534ms total)
T16D4 008:373 JLINK_ReadReg(FPS13)  returns 0x00000000 (0000ms, 3534ms total)
T16D4 008:373 JLINK_ReadReg(FPS14)  returns 0x00000000 (0000ms, 3534ms total)
T16D4 008:373 JLINK_ReadReg(FPS15)  returns 0x00000000 (0000ms, 3534ms total)
T16D4 008:373 JLINK_ReadReg(FPS16)  returns 0x00000000 (0000ms, 3534ms total)
T1534 008:377 JLINK_ReadMem (0x00000000, 0x0001 Bytes, ...)
                JLINK_ReadMemHW(0x00000000, 0x0004 Bytes, ...) -- CPU_ReadMem(4 bytes @ 0x00000000) -- Data:  E8 05 00 20  returns 0x00 (0001ms, 0000ms total)
                JLINK_ReadMemHW(0x08000000, 0x0004 Bytes, ...) -- CPU_ReadMem(4 bytes @ 0x08000000) -- Data:  E8 05 00 20  returns 0x00 (0001ms, 0001ms total)
                JLINK_WriteMemHW(0x00000000, 0x0004 Bytes, ...) -- Data:  09 00 01 00 -- CPU_WriteMem(4 bytes @ 0x00000000)  returns 0x04 (0001ms, 0002ms total)
                JLINK_ReadMemHW(0x00000000, 0x0004 Bytes, ...) -- CPU_ReadMem(4 bytes @ 0x00000000) -- Data:  E8 05 00 20  returns 0x00 (0001ms, 0003ms total)
               -- MA0 is in flash -- Unmirror addr 0x00000000 -- CPU_ReadMem(64 bytes @ 0x08000000) -- Updating C cache (64 bytes @ 0x08000000) -- Read from C cache (1 bytes @ 0x08000000) -- Data:  E8  returns 0x00 (0006ms, 3534ms total)
T1534 008:383 JLINK_ReadMem (0x00000000, 0x0004 Bytes, ...) -- Unmirror addr 0x00000000 -- Read from C cache (4 bytes @ 0x08000000) -- Data:  E8 05 00 20  returns 0x00 (0000ms, 3540ms total)
T1534 008:390 JLINK_ReadMemU32(0xE0001004, 0x0001 Items, ...) -- CPU_ReadMem(4 bytes @ 0xE0001004) -- Data:  EB 36 00 00  returns 0x01 (0001ms, 3540ms total)
T16D4 013:984 JLINK_ReadMem (0x08001BF4, 0x003C Bytes, ...) -- CPU_ReadMem(128 bytes @ 0x08001BC0) -- Updating C cache (128 bytes @ 0x08001BC0) -- Read from C cache (60 bytes @ 0x08001BF4) -- Data:  08 B5 01 21 15 20 FE F7 DF FD B9 4C FF 20 01 26 ...  returns 0x00 (0005ms, 3541ms total)
T16D4 013:989 JLINK_Step() -- Read from C cache (2 bytes @ 0x08001BF4) -- Not simulated -- CPU_WriteMem(4 bytes @ 0xE0002008) -- CPU_WriteMem(4 bytes @ 0xE000200C) -- CPU_WriteMem(4 bytes @ 0xE0002010) -- CPU_WriteMem(4 bytes @ 0xE0002014) -- CPU_WriteMem(4 bytes @ 0xE0002018) -- CPU_WriteMem(4 bytes @ 0xE000201C) -- Invalidate MA0 status  returns 0x00 (0015ms, 3546ms total)
T16D4 014:004 JLINK_ReadReg(R15)  returns 0x08001BF6 (0000ms, 3561ms total)
T16D4 014:004 JLINK_ReadReg(XPSR)  returns 0x61000000 (0000ms, 3561ms total)
T16D4 014:004 JLINK_ReadReg(R0)  returns 0x08001BF5 (0000ms, 3561ms total)
T16D4 014:004 JLINK_ReadReg(R1)  returns 0x200005E8 (0000ms, 3561ms total)
T16D4 014:004 JLINK_ReadReg(R2)  returns 0x00000000 (0000ms, 3561ms total)
T16D4 014:004 JLINK_ReadReg(R3)  returns 0x08001A71 (0000ms, 3561ms total)
T16D4 014:004 JLINK_ReadReg(R4)  returns 0x080021F0 (0000ms, 3561ms total)
T16D4 014:004 JLINK_ReadReg(R5)  returns 0x080021F0 (0000ms, 3561ms total)
T16D4 014:004 JLINK_ReadReg(R6)  returns 0x00000000 (0000ms, 3561ms total)
T16D4 014:004 JLINK_ReadReg(R7)  returns 0x00000000 (0000ms, 3561ms total)
T16D4 014:004 JLINK_ReadReg(R8)  returns 0x00000000 (0000ms, 3561ms total)
T16D4 014:004 JLINK_ReadReg(R9)  returns 0x00000000 (0000ms, 3561ms total)
T16D4 014:004 JLINK_ReadReg(R10)  returns 0x00000000 (0000ms, 3561ms total)
T16D4 014:004 JLINK_ReadReg(R11)  returns 0x00000000 (0000ms, 3561ms total)
T16D4 014:004 JLINK_ReadReg(R12)  returns 0x00000000 (0000ms, 3561ms total)
T16D4 014:004 JLINK_ReadReg(R13)  returns 0x200005E0 (0000ms, 3561ms total)
T16D4 014:004 JLINK_ReadReg(R14)  returns 0x080004FD (0000ms, 3561ms total)
T16D4 014:004 JLINK_ReadReg(R15)  returns 0x08001BF6 (0001ms, 3561ms total)
T16D4 014:005 JLINK_ReadReg(XPSR)  returns 0x61000000 (0000ms, 3562ms total)
T16D4 014:005 JLINK_ReadReg(MSP)  returns 0x200005E0 (0000ms, 3562ms total)
T16D4 014:005 JLINK_ReadReg(PSP)  returns 0x00000000 (0000ms, 3562ms total)
T16D4 014:005 JLINK_ReadReg(CFBP)  returns 0x00000000 (0000ms, 3562ms total)
T16D4 014:005 JLINK_ReadReg(FPSCR)  returns 0x00000000 (0008ms, 3562ms total)
T16D4 014:013 JLINK_ReadReg(FPS0)  returns 0x00000000 (0000ms, 3570ms total)
T16D4 014:013 JLINK_ReadReg(FPS1)  returns 0x00000000 (0000ms, 3570ms total)
T16D4 014:013 JLINK_ReadReg(FPS2)  returns 0x00000000 (0000ms, 3570ms total)
T16D4 014:013 JLINK_ReadReg(FPS3)  returns 0x00000000 (0000ms, 3570ms total)
T16D4 014:013 JLINK_ReadReg(FPS4)  returns 0x00000000 (0000ms, 3570ms total)
T16D4 014:013 JLINK_ReadReg(FPS5)  returns 0x00000000 (0000ms, 3570ms total)
T16D4 014:013 JLINK_ReadReg(FPS6)  returns 0x00000000 (0000ms, 3570ms total)
T16D4 014:013 JLINK_ReadReg(FPS7)  returns 0x00000000 (0000ms, 3570ms total)
T16D4 014:013 JLINK_ReadReg(FPS8)  returns 0x00000000 (0000ms, 3570ms total)
T16D4 014:013 JLINK_ReadReg(FPS9)  returns 0x00000000 (0000ms, 3570ms total)
T16D4 014:013 JLINK_ReadReg(FPS10)  returns 0x00000000 (0000ms, 3570ms total)
T16D4 014:013 JLINK_ReadReg(FPS11)  returns 0x00000000 (0000ms, 3570ms total)
T16D4 014:013 JLINK_ReadReg(FPS12)  returns 0x00000000 (0000ms, 3570ms total)
T16D4 014:013 JLINK_ReadReg(FPS13)  returns 0x00000000 (0000ms, 3570ms total)
T16D4 014:013 JLINK_ReadReg(FPS14)  returns 0x00000000 (0000ms, 3570ms total)
T16D4 014:013 JLINK_ReadReg(FPS15)  returns 0x00000000 (0000ms, 3570ms total)
T16D4 014:013 JLINK_ReadReg(FPS16)  returns 0x00000000 (0001ms, 3570ms total)
T16D4 014:014 JLINK_ReadReg(FPS17)  returns 0x00000000 (0000ms, 3571ms total)
T16D4 014:014 JLINK_ReadReg(FPS18)  returns 0x00000000 (0000ms, 3571ms total)
T16D4 014:014 JLINK_ReadReg(FPS19)  returns 0x00000000 (0000ms, 3571ms total)
T16D4 014:014 JLINK_ReadReg(FPS20)  returns 0x00000000 (0000ms, 3571ms total)
T16D4 014:014 JLINK_ReadReg(FPS31)  returns 0x00000000 (0000ms, 3571ms total)
T16D4 014:014 JLINK_ReadReg(FPS7)  returns 0x00000000 (0000ms, 3571ms total)
T16D4 014:014 JLINK_ReadReg(FPS8)  returns 0x00000000 (0000ms, 3571ms total)
T16D4 014:014 JLINK_ReadReg(FPS9)  returns 0x00000000 (0000ms, 3571ms total)
T16D4 014:014 JLINK_ReadReg(FPS10)  returns 0x00000000 (0000ms, 3571ms total)
T16D4 014:014 JLINK_ReadReg(FPS11)  returns 0x00000000 (0000ms, 3571ms total)
T16D4 014:014 JLINK_ReadReg(FPS12)  returns 0x00000000 (0000ms, 3571ms total)
T16D4 014:014 JLINK_ReadReg(FPS13)  returns 0x00000000 (0000ms, 3571ms total)
T16D4 014:014 JLINK_ReadReg(FPS14)  returns 0x00000000 (0000ms, 3571ms total)
T16D4 014:014 JLINK_ReadReg(FPS15)  returns 0x00000000 (0000ms, 3571ms total)
T16D4 014:014 JLINK_ReadReg(FPS16)  returns 0x00000000 (0000ms, 3571ms total)
T1534 014:015 JLINK_ReadMem (0x200005E4, 0x0004 Bytes, ...) -- CPU_ReadMem(64 bytes @ 0x200005C0) -- Updating C cache (64 bytes @ 0x200005C0) -- Read from C cache (4 bytes @ 0x200005E4) -- Data:  FD 04 00 08  returns 0x00 (0002ms, 3571ms total)
T1534 014:017 JLINK_ReadMem (0x00000000, 0x0001 Bytes, ...)
                JLINK_ReadMemHW(0x00000000, 0x0004 Bytes, ...) -- CPU_ReadMem(4 bytes @ 0x00000000) -- Data:  E8 05 00 20  returns 0x00 (0001ms, 0000ms total)
                JLINK_ReadMemHW(0x08000000, 0x0004 Bytes, ...) -- CPU_ReadMem(4 bytes @ 0x08000000) -- Data:  E8 05 00 20  returns 0x00 (0000ms, 0001ms total)
                JLINK_WriteMemHW(0x00000000, 0x0004 Bytes, ...) -- Data:  09 00 01 00 -- CPU_WriteMem(4 bytes @ 0x00000000)  returns 0x04 (0001ms, 0001ms total)
                JLINK_ReadMemHW(0x00000000, 0x0004 Bytes, ...) -- CPU_ReadMem(4 bytes @ 0x00000000) -- Data:  E8 05 00 20  returns 0x00 (0001ms, 0002ms total)
               -- MA0 is in flash -- Unmirror addr 0x00000000 -- CPU_ReadMem(64 bytes @ 0x08000000) -- Updating C cache (64 bytes @ 0x08000000) -- Read from C cache (1 bytes @ 0x08000000) -- Data:  E8  returns 0x00 (0005ms, 3573ms total)
T1534 014:022 JLINK_ReadMem (0x00000000, 0x0004 Bytes, ...) -- Unmirror addr 0x00000000 -- Read from C cache (4 bytes @ 0x08000000) -- Data:  E8 05 00 20  returns 0x00 (0000ms, 3578ms total)
T1534 014:022 JLINK_ReadMemU32(0xE0001004, 0x0001 Items, ...) -- CPU_ReadMem(4 bytes @ 0xE0001004) -- Data:  EE 36 00 00  returns 0x01 (0001ms, 3578ms total)
T1534 014:029 JLINK_ReadMem (0x08001BF6, 0x0002 Bytes, ...) -- CPU_ReadMem(64 bytes @ 0x08001BC0) -- Updating C cache (64 bytes @ 0x08001BC0) -- Read from C cache (2 bytes @ 0x08001BF6) -- Data:  01 21  returns 0x00 (0002ms, 3579ms total)
T1534 014:031 JLINK_ReadMem (0x08001BF8, 0x003C Bytes, ...) -- CPU_ReadMem(64 bytes @ 0x08001C00) -- Updating C cache (64 bytes @ 0x08001C00) -- Read from C cache (60 bytes @ 0x08001BF8) -- Data:  15 20 FE F7 DF FD B9 4C FF 20 01 26 20 60 26 71 ...  returns 0x00 (0002ms, 3581ms total)
T16D4 016:398 JLINK_Step() -- Read from C cache (2 bytes @ 0x08001BF6) -- Simulated  returns 0x00 (0001ms, 3583ms total)
T16D4 016:399 JLINK_ReadReg(R15)  returns 0x08001BF8 (0000ms, 3584ms total)
T16D4 016:399 JLINK_ReadReg(XPSR)  returns 0x21000000 (0000ms, 3584ms total)
T16D4 016:399 JLINK_Step() -- Read from C cache (2 bytes @ 0x08001BF8) -- Simulated  returns 0x00 (0001ms, 3584ms total)
T16D4 016:400 JLINK_ReadReg(R15)  returns 0x08001BFA (0000ms, 3585ms total)
T16D4 016:400 JLINK_ReadReg(XPSR)  returns 0x21000000 (0000ms, 3585ms total)
T16D4 016:400 JLINK_SetBPEx(Addr = 0x08001BFE, Type = 0xFFFFFFF2)  returns 0x00000002 (0000ms, 3585ms total)
T16D4 016:400 JLINK_Go() -- CPU_WriteMem(4 bytes @ 0xE0002008) -- CPU_WriteMem(4 bytes @ 0xE000200C) -- CPU_WriteMem(4 bytes @ 0xE0002010) -- CPU_WriteMem(4 bytes @ 0xE0002014) -- CPU_WriteMem(4 bytes @ 0xE0002018) -- CPU_WriteMem(4 bytes @ 0xE000201C) -- Invalidate MA0 status (0008ms, 3585ms total)
T16D4 016:509 JLINK_IsHalted()  returns TRUE (0005ms, 3593ms total)
T16D4 016:514 JLINK_Halt()  returns 0x00 (0000ms, 3593ms total)
T16D4 016:514 JLINK_IsHalted()  returns TRUE (0000ms, 3593ms total)
T16D4 016:514 JLINK_IsHalted()  returns TRUE (0000ms, 3593ms total)
T16D4 016:514 JLINK_IsHalted()  returns TRUE (0000ms, 3593ms total)
T16D4 016:514 JLINK_ReadReg(R15)  returns 0x08001BFE (0000ms, 3593ms total)
T16D4 016:514 JLINK_ReadReg(XPSR)  returns 0x21000000 (0000ms, 3593ms total)
T16D4 016:514 JLINK_ClrBPEx(BPHandle = 0x00000002)  returns 0x00 (0000ms, 3593ms total)
T16D4 016:514 JLINK_ReadMemU32(0xE000ED30, 0x0001 Items, ...) -- CPU_ReadMem(4 bytes @ 0xE000ED30) -- Data:  03 00 00 00  returns 0x01 (0001ms, 3593ms total)
T16D4 016:515 JLINK_ReadMemU32(0xE0001028, 0x0001 Items, ...) -- CPU_ReadMem(4 bytes @ 0xE0001028) -- Data:  00 00 00 00  returns 0x01 (0001ms, 3594ms total)
T16D4 016:516 JLINK_ReadMemU32(0xE0001038, 0x0001 Items, ...) -- CPU_ReadMem(4 bytes @ 0xE0001038) -- Data:  00 02 00 00  returns 0x01 (0001ms, 3595ms total)
T16D4 016:517 JLINK_ReadMemU32(0xE0001048, 0x0001 Items, ...) -- CPU_ReadMem(4 bytes @ 0xE0001048) -- Data:  00 00 00 00  returns 0x01 (0001ms, 3596ms total)
T16D4 016:518 JLINK_ReadMemU32(0xE0001058, 0x0001 Items, ...) -- CPU_ReadMem(4 bytes @ 0xE0001058) -- Data:  00 00 00 00  returns 0x01 (0000ms, 3597ms total)
T16D4 016:518 JLINK_Step() -- CPU_ReadMem(64 bytes @ 0x08001BC0) -- Updating C cache (64 bytes @ 0x08001BC0) -- Read from C cache (2 bytes @ 0x08001BFE) -- Not simulated -- CPU_WriteMem(4 bytes @ 0xE0002008) -- CPU_WriteMem(4 bytes @ 0xE000200C) -- CPU_WriteMem(4 bytes @ 0xE0002010) -- CPU_WriteMem(4 bytes @ 0xE0002014) -- CPU_WriteMem(4 bytes @ 0xE0002018) -- CPU_WriteMem(4 bytes @ 0xE000201C)  returns 0x00 (0016ms, 3597ms total)
T16D4 016:534 JLINK_ReadReg(R15)  returns 0x08001C00 (0000ms, 3613ms total)
T16D4 016:534 JLINK_ReadReg(XPSR)  returns 0x21000000 (0000ms, 3613ms total)
T16D4 016:534 JLINK_Step() -- CPU_ReadMem(64 bytes @ 0x08001C00) -- Updating C cache (64 bytes @ 0x08001C00) -- Read from C cache (2 bytes @ 0x08001C00) -- Simulated  returns 0x00 (0002ms, 3613ms total)
T16D4 016:536 JLINK_ReadReg(R15)  returns 0x08001C02 (0000ms, 3615ms total)
T16D4 016:536 JLINK_ReadReg(XPSR)  returns 0x21000000 (0000ms, 3615ms total)
T16D4 016:536 JLINK_ReadReg(R0)  returns 0x000000FF (0000ms, 3615ms total)
T16D4 016:536 JLINK_ReadReg(R1)  returns 0x00100015 (0000ms, 3615ms total)
T16D4 016:536 JLINK_ReadReg(R2)  returns 0x40023830 (0000ms, 3615ms total)
T16D4 016:536 JLINK_ReadReg(R3)  returns 0x08001A71 (0000ms, 3615ms total)
T16D4 016:536 JLINK_ReadReg(R4)  returns 0x20000064 (0000ms, 3615ms total)
T16D4 016:536 JLINK_ReadReg(R5)  returns 0x080021F0 (0000ms, 3615ms total)
T16D4 016:536 JLINK_ReadReg(R6)  returns 0x00000000 (0000ms, 3615ms total)
T16D4 016:536 JLINK_ReadReg(R7)  returns 0x00000000 (0000ms, 3615ms total)
T16D4 016:536 JLINK_ReadReg(R8)  returns 0x00000000 (0000ms, 3615ms total)
T16D4 016:536 JLINK_ReadReg(R9)  returns 0x00000000 (0000ms, 3615ms total)
T16D4 016:536 JLINK_ReadReg(R10)  returns 0x00000000 (0000ms, 3615ms total)
T16D4 016:536 JLINK_ReadReg(R11)  returns 0x00000000 (0000ms, 3615ms total)
T16D4 016:536 JLINK_ReadReg(R12)  returns 0x00000000 (0000ms, 3615ms total)
T16D4 016:536 JLINK_ReadReg(R13)  returns 0x200005E0 (0000ms, 3615ms total)
T16D4 016:536 JLINK_ReadReg(R14)  returns 0x08001BFF (0000ms, 3615ms total)
T16D4 016:536 JLINK_ReadReg(R15)  returns 0x08001C02 (0000ms, 3615ms total)
T16D4 016:536 JLINK_ReadReg(XPSR)  returns 0x21000000 (0000ms, 3615ms total)
T16D4 016:536 JLINK_ReadReg(MSP)  returns 0x200005E0 (0000ms, 3615ms total)
T16D4 016:536 JLINK_ReadReg(PSP)  returns 0x00000000 (0000ms, 3615ms total)
T16D4 016:536 JLINK_ReadReg(CFBP)  returns 0x00000000 (0000ms, 3615ms total)
T16D4 016:536 JLINK_ReadReg(FPSCR)  returns 0x00000000 (0009ms, 3615ms total)
T16D4 016:545 JLINK_ReadReg(FPS0)  returns 0x00000000 (0000ms, 3624ms total)
T16D4 016:545 JLINK_ReadReg(FPS1)  returns 0x00000000 (0000ms, 3624ms total)
T16D4 016:545 JLINK_ReadReg(FPS2)  returns 0x00000000 (0000ms, 3624ms total)
T16D4 016:545 JLINK_ReadReg(FPS3)  returns 0x00000000 (0000ms, 3624ms total)
T16D4 016:545 JLINK_ReadReg(FPS4)  returns 0x00000000 (0000ms, 3624ms total)
T16D4 016:545 JLINK_ReadReg(FPS5)  returns 0x00000000 (0000ms, 3624ms total)
T16D4 016:545 JLINK_ReadReg(FPS6)  returns 0x00000000 (0000ms, 3624ms total)
T16D4 016:545 JLINK_ReadReg(FPS7)  returns 0x00000000 (0000ms, 3624ms total)
T16D4 016:545 JLINK_ReadReg(FPS8)  returns 0x00000000 (0000ms, 3624ms total)
T16D4 016:545 JLINK_ReadReg(FPS9)  returns 0x00000000 (0000ms, 3624ms total)
T16D4 016:545 JLINK_ReadReg(FPS10)  returns 0x00000000 (0000ms, 3624ms total)
T16D4 016:545 JLINK_ReadReg(FPS11)  returns 0x00000000 (0000ms, 3624ms total)
T16D4 016:545 JLINK_ReadReg(FPS12)  returns 0x00000000 (0000ms, 3624ms total)
T16D4 016:545 JLINK_ReadReg(FPS13)  returns 0x00000000 (0000ms, 3624ms total)
T16D4 016:545 JLINK_ReadReg(FPS14)  returns 0x00000000 (0000ms, 3624ms total)
T16D4 016:545 JLINK_ReadReg(FPS15)  returns 0x00000000 (0000ms, 3624ms total)
T16D4 016:545 JLINK_ReadReg(FPS16)  returns 0x00000000 (0000ms, 3624ms total)
T16D4 016:545 JLINK_ReadReg(FPS17)  returns 0x00000000 (0000ms, 3624ms total)
T16D4 016:545 JLINK_ReadReg(FPS18)  returns 0x00000000 (0000ms, 3624ms total)
T16D4 016:545 JLINK_ReadReg(FPS19)  returns 0x00000000 (0000ms, 3624ms total)
T16D4 016:545 JLINK_ReadReg(FPS20)  returns 0x00000000 (0000ms, 3624ms total)
T16D4 016:545 JLINK_ReadReg(FPS31)  returns 0x00000000 (0000ms, 3624ms total)
T16D4 016:545 JLINK_ReadReg(FPS7)  returns 0x00000000 (0000ms, 3624ms total)
T16D4 016:545 JLINK_ReadReg(FPS8)  returns 0x00000000 (0000ms, 3624ms total)
T16D4 016:545 JLINK_ReadReg(FPS9)  returns 0x00000000 (0000ms, 3624ms total)
T16D4 016:545 JLINK_ReadReg(FPS10)  returns 0x00000000 (0000ms, 3624ms total)
T16D4 016:545 JLINK_ReadReg(FPS11)  returns 0x00000000 (0000ms, 3624ms total)
T16D4 016:545 JLINK_ReadReg(FPS12)  returns 0x00000000 (0000ms, 3624ms total)
T16D4 016:545 JLINK_ReadReg(FPS13)  returns 0x00000000 (0000ms, 3624ms total)
T16D4 016:545 JLINK_ReadReg(FPS14)  returns 0x00000000 (0000ms, 3624ms total)
T16D4 016:545 JLINK_ReadReg(FPS15)  returns 0x00000000 (0000ms, 3624ms total)
T16D4 016:546 JLINK_ReadReg(FPS16)  returns 0x00000000 (0000ms, 3625ms total)
T1534 016:546 JLINK_ReadMem (0x200005E4, 0x0004 Bytes, ...) -- CPU_ReadMem(64 bytes @ 0x200005C0) -- Updating C cache (64 bytes @ 0x200005C0) -- Read from C cache (4 bytes @ 0x200005E4) -- Data:  FD 04 00 08  returns 0x00 (0002ms, 3625ms total)
T1534 016:548 JLINK_ReadMem (0x00000000, 0x0001 Bytes, ...)
                JLINK_ReadMemHW(0x00000000, 0x0004 Bytes, ...) -- CPU_ReadMem(4 bytes @ 0x00000000) -- Data:  E8 05 00 20  returns 0x00 (0001ms, 0000ms total)
                JLINK_ReadMemHW(0x08000000, 0x0004 Bytes, ...) -- CPU_ReadMem(4 bytes @ 0x08000000) -- Data:  E8 05 00 20  returns 0x00 (0001ms, 0001ms total)
                JLINK_WriteMemHW(0x00000000, 0x0004 Bytes, ...) -- Data:  09 00 01 00 -- CPU_WriteMem(4 bytes @ 0x00000000)  returns 0x04 (0001ms, 0002ms total)
                JLINK_ReadMemHW(0x00000000, 0x0004 Bytes, ...) -- CPU_ReadMem(4 bytes @ 0x00000000) -- Data:  E8 05 00 20  returns 0x00 (0001ms, 0003ms total)
               -- MA0 is in flash -- Unmirror addr 0x00000000 -- CPU_ReadMem(64 bytes @ 0x08000000) -- Updating C cache (64 bytes @ 0x08000000) -- Read from C cache (1 bytes @ 0x08000000) -- Data:  E8  returns 0x00 (0006ms, 3627ms total)
T1534 016:554 JLINK_ReadMem (0x00000000, 0x0004 Bytes, ...) -- Unmirror addr 0x00000000 -- Read from C cache (4 bytes @ 0x08000000) -- Data:  E8 05 00 20  returns 0x00 (0000ms, 3633ms total)
T1534 016:554 JLINK_ReadMemU32(0xE0001004, 0x0001 Items, ...) -- CPU_ReadMem(4 bytes @ 0xE0001004) -- Data:  1D 37 00 00  returns 0x01 (0001ms, 3633ms total)
T1534 016:564 JLINK_ReadMem (0x08001C02, 0x0002 Bytes, ...) -- Read from C cache (2 bytes @ 0x08001C02) -- Data:  01 26  returns 0x00 (0000ms, 3634ms total)
T1534 016:564 JLINK_ReadMem (0x08001C04, 0x003C Bytes, ...) -- Read from C cache (60 bytes @ 0x08001C04) -- Data:  20 60 26 71 00 25 A5 71 03 20 60 71 B5 4F E5 71 ...  returns 0x00 (0000ms, 3634ms total)
T16D4 016:911 JLINK_Step() -- Read from C cache (2 bytes @ 0x08001C02) -- Simulated  returns 0x00 (0000ms, 3634ms total)
T16D4 016:911 JLINK_ReadReg(R15)  returns 0x08001C04 (0000ms, 3634ms total)
T16D4 016:911 JLINK_ReadReg(XPSR)  returns 0x21000000 (0000ms, 3634ms total)
T16D4 016:911 JLINK_Step() -- Read from C cache (2 bytes @ 0x08001C04) -- Not simulated -- CPU_WriteMem(4 bytes @ 0xE0002008) -- CPU_WriteMem(4 bytes @ 0xE000200C) -- CPU_WriteMem(4 bytes @ 0xE0002010) -- CPU_WriteMem(4 bytes @ 0xE0002014) -- CPU_WriteMem(4 bytes @ 0xE0002018) -- CPU_WriteMem(4 bytes @ 0xE000201C) -- Invalidate MA0 status  returns 0x00 (0015ms, 3634ms total)
T16D4 016:926 JLINK_ReadReg(R15)  returns 0x08001C06 (0000ms, 3649ms total)
T16D4 016:926 JLINK_ReadReg(XPSR)  returns 0x21000000 (0000ms, 3649ms total)
T16D4 016:926 JLINK_Step() -- CPU_ReadMem(64 bytes @ 0x08001C00) -- Updating C cache (64 bytes @ 0x08001C00) -- Read from C cache (2 bytes @ 0x08001C06) -- Not simulated -- CPU_WriteMem(4 bytes @ 0xE0002008) -- CPU_WriteMem(4 bytes @ 0xE000200C) -- CPU_WriteMem(4 bytes @ 0xE0002010) -- CPU_WriteMem(4 bytes @ 0xE0002014) -- CPU_WriteMem(4 bytes @ 0xE0002018) -- CPU_WriteMem(4 bytes @ 0xE000201C)  returns 0x00 (0015ms, 3649ms total)
T16D4 016:941 JLINK_ReadReg(R15)  returns 0x08001C08 (0000ms, 3664ms total)
T16D4 016:941 JLINK_ReadReg(XPSR)  returns 0x21000000 (0000ms, 3664ms total)
T16D4 016:942 JLINK_ReadReg(R0)  returns 0x000000FF (0000ms, 3664ms total)
T16D4 016:942 JLINK_ReadReg(R1)  returns 0x00100015 (0000ms, 3664ms total)
T16D4 016:942 JLINK_ReadReg(R2)  returns 0x40023830 (0000ms, 3664ms total)
T16D4 016:942 JLINK_ReadReg(R3)  returns 0x08001A71 (0000ms, 3664ms total)
T16D4 016:942 JLINK_ReadReg(R4)  returns 0x20000064 (0000ms, 3664ms total)
T16D4 016:942 JLINK_ReadReg(R5)  returns 0x080021F0 (0000ms, 3664ms total)
T16D4 016:942 JLINK_ReadReg(R6)  returns 0x00000001 (0000ms, 3664ms total)
T16D4 016:942 JLINK_ReadReg(R7)  returns 0x00000000 (0000ms, 3664ms total)
T16D4 016:942 JLINK_ReadReg(R8)  returns 0x00000000 (0000ms, 3664ms total)
T16D4 016:942 JLINK_ReadReg(R9)  returns 0x00000000 (0000ms, 3664ms total)
T16D4 016:942 JLINK_ReadReg(R10)  returns 0x00000000 (0000ms, 3664ms total)
T16D4 016:942 JLINK_ReadReg(R11)  returns 0x00000000 (0000ms, 3664ms total)
T16D4 016:942 JLINK_ReadReg(R12)  returns 0x00000000 (0000ms, 3664ms total)
T16D4 016:942 JLINK_ReadReg(R13)  returns 0x200005E0 (0000ms, 3664ms total)
T16D4 016:942 JLINK_ReadReg(R14)  returns 0x08001BFF (0000ms, 3664ms total)
T16D4 016:942 JLINK_ReadReg(R15)  returns 0x08001C08 (0000ms, 3664ms total)
T16D4 016:942 JLINK_ReadReg(XPSR)  returns 0x21000000 (0000ms, 3664ms total)
T16D4 016:942 JLINK_ReadReg(MSP)  returns 0x200005E0 (0000ms, 3664ms total)
T16D4 016:942 JLINK_ReadReg(PSP)  returns 0x00000000 (0000ms, 3664ms total)
T16D4 016:942 JLINK_ReadReg(CFBP)  returns 0x00000000 (0000ms, 3664ms total)
T16D4 016:942 JLINK_ReadReg(FPSCR)  returns 0x00000000 (0009ms, 3664ms total)
T16D4 016:951 JLINK_ReadReg(FPS0)  returns 0x00000000 (0000ms, 3673ms total)
T16D4 016:951 JLINK_ReadReg(FPS1)  returns 0x00000000 (0000ms, 3673ms total)
T16D4 016:951 JLINK_ReadReg(FPS2)  returns 0x00000000 (0000ms, 3673ms total)
T16D4 016:951 JLINK_ReadReg(FPS3)  returns 0x00000000 (0000ms, 3673ms total)
T16D4 016:951 JLINK_ReadReg(FPS4)  returns 0x00000000 (0000ms, 3673ms total)
T16D4 016:951 JLINK_ReadReg(FPS5)  returns 0x00000000 (0000ms, 3673ms total)
T16D4 016:951 JLINK_ReadReg(FPS6)  returns 0x00000000 (0000ms, 3673ms total)
T16D4 016:951 JLINK_ReadReg(FPS7)  returns 0x00000000 (0000ms, 3673ms total)
T16D4 016:951 JLINK_ReadReg(FPS8)  returns 0x00000000 (0000ms, 3673ms total)
T16D4 016:951 JLINK_ReadReg(FPS9)  returns 0x00000000 (0000ms, 3673ms total)
T16D4 016:951 JLINK_ReadReg(FPS10)  returns 0x00000000 (0000ms, 3673ms total)
T16D4 016:951 JLINK_ReadReg(FPS11)  returns 0x00000000 (0000ms, 3673ms total)
T16D4 016:951 JLINK_ReadReg(FPS12)  returns 0x00000000 (0000ms, 3673ms total)
T16D4 016:951 JLINK_ReadReg(FPS13)  returns 0x00000000 (0000ms, 3673ms total)
T16D4 016:951 JLINK_ReadReg(FPS14)  returns 0x00000000 (0000ms, 3673ms total)
T16D4 016:951 JLINK_ReadReg(FPS15)  returns 0x00000000 (0000ms, 3673ms total)
T16D4 016:951 JLINK_ReadReg(FPS16)  returns 0x00000000 (0000ms, 3673ms total)
T16D4 016:951 JLINK_ReadReg(FPS17)  returns 0x00000000 (0000ms, 3673ms total)
T16D4 016:951 JLINK_ReadReg(FPS18)  returns 0x00000000 (0000ms, 3673ms total)
T16D4 016:951 JLINK_ReadReg(FPS19)  returns 0x00000000 (0000ms, 3673ms total)
T16D4 016:951 JLINK_ReadReg(FPS20)  returns 0x00000000 (0000ms, 3673ms total)
T16D4 016:951 JLINK_ReadReg(FPS31)  returns 0x00000000 (0000ms, 3673ms total)
T16D4 016:951 JLINK_ReadReg(FPS7)  returns 0x00000000 (0000ms, 3673ms total)
T16D4 016:951 JLINK_ReadReg(FPS8)  returns 0x00000000 (0000ms, 3673ms total)
T16D4 016:951 JLINK_ReadReg(FPS9)  returns 0x00000000 (0000ms, 3673ms total)
T16D4 016:951 JLINK_ReadReg(FPS10)  returns 0x00000000 (0000ms, 3673ms total)
T16D4 016:951 JLINK_ReadReg(FPS11)  returns 0x00000000 (0000ms, 3673ms total)
T16D4 016:951 JLINK_ReadReg(FPS12)  returns 0x00000000 (0000ms, 3673ms total)
T16D4 016:951 JLINK_ReadReg(FPS13)  returns 0x00000000 (0000ms, 3673ms total)
T16D4 016:951 JLINK_ReadReg(FPS14)  returns 0x00000000 (0000ms, 3673ms total)
T16D4 016:951 JLINK_ReadReg(FPS15)  returns 0x00000000 (0000ms, 3673ms total)
T16D4 016:951 JLINK_ReadReg(FPS16)  returns 0x00000000 (0000ms, 3673ms total)
T1534 016:952 JLINK_ReadMem (0x200005E4, 0x0004 Bytes, ...) -- CPU_ReadMem(64 bytes @ 0x200005C0) -- Updating C cache (64 bytes @ 0x200005C0) -- Read from C cache (4 bytes @ 0x200005E4) -- Data:  FD 04 00 08  returns 0x00 (0002ms, 3673ms total)
T1534 016:954 JLINK_ReadMem (0x00000000, 0x0001 Bytes, ...)
                JLINK_ReadMemHW(0x00000000, 0x0004 Bytes, ...) -- CPU_ReadMem(4 bytes @ 0x00000000) -- Data:  E8 05 00 20  returns 0x00 (0001ms, 0000ms total)
                JLINK_ReadMemHW(0x08000000, 0x0004 Bytes, ...) -- CPU_ReadMem(4 bytes @ 0x08000000) -- Data:  E8 05 00 20  returns 0x00 (0001ms, 0001ms total)
                JLINK_WriteMemHW(0x00000000, 0x0004 Bytes, ...) -- Data:  09 00 01 00 -- CPU_WriteMem(4 bytes @ 0x00000000)  returns 0x04 (0001ms, 0002ms total)
                JLINK_ReadMemHW(0x00000000, 0x0004 Bytes, ...) -- CPU_ReadMem(4 bytes @ 0x00000000) -- Data:  E8 05 00 20  returns 0x00 (0001ms, 0003ms total)
               -- MA0 is in flash -- Unmirror addr 0x00000000 -- CPU_ReadMem(64 bytes @ 0x08000000) -- Updating C cache (64 bytes @ 0x08000000) -- Read from C cache (1 bytes @ 0x08000000) -- Data:  E8  returns 0x00 (0006ms, 3675ms total)
T1534 016:960 JLINK_ReadMem (0x00000000, 0x0004 Bytes, ...) -- Unmirror addr 0x00000000 -- Read from C cache (4 bytes @ 0x08000000) -- Data:  E8 05 00 20  returns 0x00 (0000ms, 3681ms total)
T1534 016:960 JLINK_ReadMemU32(0xE0001004, 0x0001 Items, ...) -- CPU_ReadMem(4 bytes @ 0xE0001004) -- Data:  1F 37 00 00  returns 0x01 (0001ms, 3681ms total)
T1534 016:967 JLINK_ReadMem (0x08001C08, 0x003C Bytes, ...) -- CPU_ReadMem(128 bytes @ 0x08001C00) -- Updating C cache (128 bytes @ 0x08001C00) -- Read from C cache (60 bytes @ 0x08001C08) -- Data:  00 25 A5 71 03 20 60 71 B5 4F E5 71 21 46 38 46 ...  returns 0x00 (0003ms, 3682ms total)
T16D4 017:133 JLINK_Step() -- Read from C cache (2 bytes @ 0x08001C08) -- Simulated  returns 0x00 (0002ms, 3685ms total)
T16D4 017:135 JLINK_ReadReg(R15)  returns 0x08001C0A (0000ms, 3687ms total)
T16D4 017:135 JLINK_ReadReg(XPSR)  returns 0x61000000 (0000ms, 3687ms total)
T16D4 017:135 JLINK_Step() -- Read from C cache (2 bytes @ 0x08001C0A) -- Not simulated -- CPU_WriteMem(4 bytes @ 0xE0002008) -- CPU_WriteMem(4 bytes @ 0xE000200C) -- CPU_WriteMem(4 bytes @ 0xE0002010) -- CPU_WriteMem(4 bytes @ 0xE0002014) -- CPU_WriteMem(4 bytes @ 0xE0002018) -- CPU_WriteMem(4 bytes @ 0xE000201C) -- Invalidate MA0 status  returns 0x00 (0014ms, 3687ms total)
T16D4 017:149 JLINK_ReadReg(R15)  returns 0x08001C0C (0000ms, 3701ms total)
T16D4 017:149 JLINK_ReadReg(XPSR)  returns 0x61000000 (0000ms, 3701ms total)
T16D4 017:150 JLINK_ReadReg(R0)  returns 0x000000FF (0000ms, 3701ms total)
T16D4 017:150 JLINK_ReadReg(R1)  returns 0x00100015 (0000ms, 3701ms total)
T16D4 017:150 JLINK_ReadReg(R2)  returns 0x40023830 (0000ms, 3701ms total)
T16D4 017:150 JLINK_ReadReg(R3)  returns 0x08001A71 (0000ms, 3701ms total)
T16D4 017:150 JLINK_ReadReg(R4)  returns 0x20000064 (0000ms, 3701ms total)
T16D4 017:150 JLINK_ReadReg(R5)  returns 0x00000000 (0000ms, 3701ms total)
T16D4 017:150 JLINK_ReadReg(R6)  returns 0x00000001 (0000ms, 3701ms total)
T16D4 017:150 JLINK_ReadReg(R7)  returns 0x00000000 (0000ms, 3701ms total)
T16D4 017:150 JLINK_ReadReg(R8)  returns 0x00000000 (0000ms, 3701ms total)
T16D4 017:150 JLINK_ReadReg(R9)  returns 0x00000000 (0000ms, 3701ms total)
T16D4 017:150 JLINK_ReadReg(R10)  returns 0x00000000 (0000ms, 3701ms total)
T16D4 017:150 JLINK_ReadReg(R11)  returns 0x00000000 (0000ms, 3701ms total)
T16D4 017:150 JLINK_ReadReg(R12)  returns 0x00000000 (0000ms, 3701ms total)
T16D4 017:150 JLINK_ReadReg(R13)  returns 0x200005E0 (0000ms, 3701ms total)
T16D4 017:150 JLINK_ReadReg(R14)  returns 0x08001BFF (0000ms, 3701ms total)
T16D4 017:150 JLINK_ReadReg(R15)  returns 0x08001C0C (0000ms, 3701ms total)
T16D4 017:150 JLINK_ReadReg(XPSR)  returns 0x61000000 (0000ms, 3701ms total)
T16D4 017:150 JLINK_ReadReg(MSP)  returns 0x200005E0 (0000ms, 3701ms total)
T16D4 017:150 JLINK_ReadReg(PSP)  returns 0x00000000 (0000ms, 3701ms total)
T16D4 017:150 JLINK_ReadReg(CFBP)  returns 0x00000000 (0000ms, 3701ms total)
T16D4 017:150 JLINK_ReadReg(FPSCR)  returns 0x00000000 (0008ms, 3701ms total)
T16D4 017:158 JLINK_ReadReg(FPS0)  returns 0x00000000 (0001ms, 3709ms total)
T16D4 017:159 JLINK_ReadReg(FPS1)  returns 0x00000000 (0000ms, 3710ms total)
T16D4 017:159 JLINK_ReadReg(FPS2)  returns 0x00000000 (0000ms, 3710ms total)
T16D4 017:159 JLINK_ReadReg(FPS3)  returns 0x00000000 (0000ms, 3710ms total)
T16D4 017:159 JLINK_ReadReg(FPS4)  returns 0x00000000 (0000ms, 3710ms total)
T16D4 017:159 JLINK_ReadReg(FPS5)  returns 0x00000000 (0000ms, 3710ms total)
T16D4 017:159 JLINK_ReadReg(FPS6)  returns 0x00000000 (0000ms, 3710ms total)
T16D4 017:159 JLINK_ReadReg(FPS7)  returns 0x00000000 (0000ms, 3710ms total)
T16D4 017:159 JLINK_ReadReg(FPS8)  returns 0x00000000 (0000ms, 3710ms total)
T16D4 017:159 JLINK_ReadReg(FPS9)  returns 0x00000000 (0000ms, 3710ms total)
T16D4 017:159 JLINK_ReadReg(FPS10)  returns 0x00000000 (0000ms, 3710ms total)
T16D4 017:159 JLINK_ReadReg(FPS11)  returns 0x00000000 (0000ms, 3710ms total)
T16D4 017:159 JLINK_ReadReg(FPS12)  returns 0x00000000 (0000ms, 3710ms total)
T16D4 017:159 JLINK_ReadReg(FPS13)  returns 0x00000000 (0000ms, 3710ms total)
T16D4 017:159 JLINK_ReadReg(FPS14)  returns 0x00000000 (0000ms, 3710ms total)
T16D4 017:159 JLINK_ReadReg(FPS15)  returns 0x00000000 (0000ms, 3710ms total)
T16D4 017:159 JLINK_ReadReg(FPS16)  returns 0x00000000 (0000ms, 3710ms total)
T16D4 017:159 JLINK_ReadReg(FPS17)  returns 0x00000000 (0000ms, 3710ms total)
T16D4 017:159 JLINK_ReadReg(FPS18)  returns 0x00000000 (0000ms, 3710ms total)
T16D4 017:159 JLINK_ReadReg(FPS19)  returns 0x00000000 (0000ms, 3710ms total)
T16D4 017:159 JLINK_ReadReg(FPS20)  returns 0x00000000 (0000ms, 3710ms total)
T16D4 017:159 JLINK_ReadReg(FPS31)  returns 0x00000000 (0000ms, 3710ms total)
T16D4 017:159 JLINK_ReadReg(FPS7)  returns 0x00000000 (0000ms, 3710ms total)
T16D4 017:159 JLINK_ReadReg(FPS8)  returns 0x00000000 (0000ms, 3710ms total)
T16D4 017:159 JLINK_ReadReg(FPS9)  returns 0x00000000 (0000ms, 3710ms total)
T16D4 017:159 JLINK_ReadReg(FPS10)  returns 0x00000000 (0000ms, 3710ms total)
